
**** 10/26/16 11:24:19 ****** PSpice Lite (October 2012) ****** ID# 10813 ****

 ** Profile: "SCHEMATIC1-a1"  [ C:\SP\PSPICE_EXPS\exp1\exp1-PSpiceFiles\SCHEMATIC1\a1.sim ] 


 ****     CIRCUIT DESCRIPTION


******************************************************************************




** Creating circuit file "a1.cir" 
** WARNING: THIS AUTOMATICALLY GENERATED FILE MAY BE OVERWRITTEN BY SUBSEQUENT SIMULATIONS

*Libraries: 
* Profile Libraries :
* Local Libraries :
* From [PSPICE NETLIST] section of C:\Users\SRIJANPABBI\AppData\Roaming\SPB_16.6\cdssetup\OrCAD_PSpice/16.6.0/PSpice.ini file:
.lib "nomd.lib" 

*Analysis directives: 
.OPTIONS ADVCONV
.PROBE64 V(alias(*)) I(alias(*)) W(alias(*)) D(alias(*)) NOISE(alias(*)) 
.INC "..\SCHEMATIC1.net" 



**** INCLUDING SCHEMATIC1.net ****
* source EXP1
V_V1         N14386 N14421 15Vdc
R_R1         N14386 N14395  2k TC=0,0 
R_R2         0 N14395  0.5k TC=0,0 
R_R3         0 N14421  1k TC=0,0 

**** RESUMING a1.cir ****
.END

**** 10/26/16 11:24:19 ****** PSpice Lite (October 2012) ****** ID# 10813 ****

 ** Profile: "SCHEMATIC1-a1"  [ C:\SP\PSPICE_EXPS\exp1\exp1-PSpiceFiles\SCHEMATIC1\a1.sim ] 


 ****     SMALL SIGNAL BIAS SOLUTION       TEMPERATURE =   27.000 DEG C


******************************************************************************



 NODE   VOLTAGE     NODE   VOLTAGE     NODE   VOLTAGE     NODE   VOLTAGE


(N14386)   10.7140 (N14395)    2.1429 (N14421)   -4.2857 




    VOLTAGE SOURCE CURRENTS
    NAME         CURRENT

    V_V1        -4.286E-03

    TOTAL POWER DISSIPATION   6.43E-02  WATTS



          JOB CONCLUDED

**** 10/26/16 11:24:19 ****** PSpice Lite (October 2012) ****** ID# 10813 ****

 ** Profile: "SCHEMATIC1-a1"  [ C:\SP\PSPICE_EXPS\exp1\exp1-PSpiceFiles\SCHEMATIC1\a1.sim ] 


 ****     JOB STATISTICS SUMMARY


******************************************************************************



  Total job time (using Solver 1)   =         .02
